
T3910 000:354 SEGGER J-Link V4.98e Log File (0000ms, 0285ms total)
T3910 000:354 DLL Compiled: May  5 2015 11:00:52 (0000ms, 0285ms total)
T3910 000:354 Logging started @ 2020-11-17 00:13 (0000ms, 0285ms total)
T3910 000:354 JLINK_SetWarnOutHandler(...) (0001ms, 0286ms total)
T3910 000:355 JLINK_OpenEx(...)
Firmware: J-Link V9 compiled Dec 13 2019 11:14:50
Hardware: V9.40
S/N: 59400325
Feature(s): RDI, GDB, FlashDL, FlashBP, JFlash  returns O.K. (0286ms, 0572ms total)
T3910 000:641 JLINK_SetErrorOutHandler(...) (0000ms, 0572ms total)
T3910 000:641 JLINK_ExecCommand("ProjectFile = "D:\WorkSpace\weight_mode\program\mcu_program\wm_multi_project\firm_wm_00_app\JLinkSettings.ini"", ...)  returns 0x00 (0001ms, 0573ms total)
T3910 000:642 JLINK_ExecCommand("Device = STM32F303RC", ...)Device "STM32F303RC" selected.  returns 0x00 (0001ms, 0574ms total)
T3910 000:643 JLINK_ExecCommand("DisableConnectionTimeout", ...)  returns 0x01 (0000ms, 0574ms total)
T3910 000:643 JLINK_GetHardwareVersion()  returns 0x16F30 (0000ms, 0574ms total)
T3910 000:643 JLINK_GetDLLVersion()  returns 49805 (0000ms, 0574ms total)
T3910 000:643 JLINK_GetFirmwareString(...) (0000ms, 0574ms total)
T3910 000:645 JLINK_GetDLLVersion()  returns 49805 (0000ms, 0574ms total)
T3910 000:645 JLINK_GetCompileDateTime() (0000ms, 0574ms total)
T3910 000:645 JLINK_GetFirmwareString(...) (0000ms, 0574ms total)
T3910 000:645 JLINK_GetHardwareVersion()  returns 0x16F30 (0001ms, 0575ms total)
T3910 000:647 JLINK_TIF_Select(JLINKARM_TIF_SWD)  returns 0x00 (0000ms, 0575ms total)
T3910 000:647 JLINK_SetSpeed(1000) (0001ms, 0576ms total)
T3910 000:648 JLINK_GetId() >0x108 TIF>Found SWD-DP with ID 0x2BA01477 >0x0D TIF> >0x28 TIF> >0x0D TIF> >0x28 TIF> >0x0D TIF> >0x21 TIF> >0x0D TIF> >0x28 TIF> >0x0D TIF> >0x28 TIF> >0x0D TIF> >0x28 TIF> >0x0D TIF> >0x21 TIF> >0x0D TIF> >0x21 TIF> >0x0D TIF> >0x28 TIF> >0x0D TIF> >0x21 TIF> >0x0D TIF> >0x21 TIF> >0x0D TIF> >0x28 TIF> >0x0D TIF> >0x21 TIF> >0x0D TIF> >0x21 TIF> >0x108 TIF>Found SWD-DP with ID 0x2BA01477 >0x0D TIF> >0x21 TIF> >0x0D TIF> >0x28 TIF> >0x0D TIF> >0x28 TIF> >0x0D TIF> >0x21 TIF>
 >0x0D TIF> >0x28 TIF> >0x0D TIF> >0x21 TIF> >0x0D TIF> >0x21 TIF> >0x0D TIF> >0x21 TIF> >0x0D TIF> >0x21 TIF> >0x0D TIF> >0x28 TIF> >0x0D TIF> >0x28 TIF> >0x0D TIF> >0x21 TIF> >0x0D TIF> >0x28 TIF> >0x0D TIF> >0x28 TIF> >0x0D TIF> >0x28 TIF> >0x0D TIF> >0x21 TIF> >0x0D TIF> >0x21 TIF> >0x0D TIF> >0x28 TIF> >0x0D TIF> >0x21 TIF> >0x0D TIF> >0x21 TIF>Found Cortex-M4 r0p1, Little endian. -- CPU_WriteMem(4 bytes @ 0xE0002000) -- CPU_ReadMem(4 bytes @ 0xE000EDF0) -- CPU_ReadMem(4 bytes @ 0xE0002000)
FPUnit: 6 code (BP) slots and 2 literal slots -- CPU_ReadMem(4 bytes @ 0xE000EDFC) -- CPU_ReadMem(4 bytes @ 0xE0001000) -- CPU_WriteMem(4 bytes @ 0xE0001000) -- CPU_ReadMem(4 bytes @ 0xE000ED88) -- CPU_WriteMem(4 bytes @ 0xE000ED88) -- CPU_ReadMem(4 bytes @ 0xE000ED88) -- CPU_WriteMem(4 bytes @ 0xE000ED88)CoreSight components:ROMTbl 0 @ E00FF000 -- CPU_ReadMem(16 bytes @ 0xE00FF000) -- CPU_ReadMem(16 bytes @ 0xE000EFF0) -- CPU_ReadMem(16 bytes @ 0xE000EFE0)
ROMTbl 0 [0]: FFF0F000, CID: B105E00D, PID: 000BB00C SCS -- CPU_ReadMem(16 bytes @ 0xE0001FF0) -- CPU_ReadMem(16 bytes @ 0xE0001FE0)ROMTbl 0 [1]: FFF02000, CID: B105E00D, PID: 003BB002 DWT -- CPU_ReadMem(16 bytes @ 0xE0002FF0) -- CPU_ReadMem(16 bytes @ 0xE0002FE0)ROMTbl 0 [2]: FFF03000, CID: B105E00D, PID: 002BB003 FPB -- CPU_ReadMem(16 bytes @ 0xE0000FF0) -- CPU_ReadMem(16 bytes @ 0xE0000FE0)ROMTbl 0 [3]: FFF01000, CID: B105E00D, PID: 003BB001 ITM -- CPU_ReadMem(16 bytes @ 0xE00FF010)
 -- CPU_ReadMem(16 bytes @ 0xE0040FF0) -- CPU_ReadMem(16 bytes @ 0xE0040FE0)ROMTbl 0 [4]: FFF41000, CID: B105900D, PID: 000BB9A1 TPIU -- CPU_ReadMem(16 bytes @ 0xE0041FF0) -- CPU_ReadMem(16 bytes @ 0xE0041FE0)ROMTbl 0 [5]: FFF42000, CID: B105900D, PID: 000BB925 ETM -- CPU_WriteMem(32768 bytes @ 0x20000000) >0x0D TIF> >0x21 TIF>  returns 0x2BA01477 (0845ms, 1421ms total)
T3910 001:493 JLINK_GetDLLVersion()  returns 49805 (0000ms, 1421ms total)
T3910 001:493 JLINK_CORE_GetFound()  returns 0xE0000FF (0000ms, 1421ms total)
T3910 001:493 JLINK_GetDebugInfo(0x100) -- Value=0xE00FF003  returns 0x00 (0000ms, 1421ms total)
T3910 001:494 JLINK_ReadMem (0xE00FF000, 0x0020 Bytes, ...) -- CPU_ReadMem(32 bytes @ 0xE00FF000) - Data: 03 F0 F0 FF 03 20 F0 FF 03 30 F0 FF 03 10 F0 FF ...  returns 0x00 (0002ms, 1423ms total)
T3910 001:496 JLINK_ReadMem (0xE000EFF0, 0x0010 Bytes, ...) -- CPU_ReadMem(16 bytes @ 0xE000EFF0) - Data: 0D 00 00 00 E0 00 00 00 05 00 00 00 B1 00 00 00  returns 0x00 (0001ms, 1424ms total)
T3910 001:497 JLINK_ReadMem (0xE000EFD0, 0x0020 Bytes, ...) -- CPU_ReadMem(32 bytes @ 0xE000EFD0) - Data: 04 00 00 00 00 00 00 00 00 00 00 00 00 00 00 00 ...  returns 0x00 (0002ms, 1426ms total)
T3910 001:499 JLINK_ReadMem (0xE0001FF0, 0x0010 Bytes, ...) -- CPU_ReadMem(16 bytes @ 0xE0001FF0) - Data: 0D 00 00 00 E0 00 00 00 05 00 00 00 B1 00 00 00  returns 0x00 (0001ms, 1427ms total)
T3910 001:500 JLINK_ReadMem (0xE0001FD0, 0x0020 Bytes, ...) -- CPU_ReadMem(32 bytes @ 0xE0001FD0) - Data: 04 00 00 00 00 00 00 00 00 00 00 00 00 00 00 00 ...  returns 0x00 (0001ms, 1428ms total)
T3910 001:501 JLINK_ReadMem (0xE0002FF0, 0x0010 Bytes, ...) -- CPU_ReadMem(16 bytes @ 0xE0002FF0) - Data: 0D 00 00 00 E0 00 00 00 05 00 00 00 B1 00 00 00  returns 0x00 (0002ms, 1430ms total)
T3910 001:503 JLINK_ReadMem (0xE0002FD0, 0x0020 Bytes, ...) -- CPU_ReadMem(32 bytes @ 0xE0002FD0) - Data: 04 00 00 00 00 00 00 00 00 00 00 00 00 00 00 00 ...  returns 0x00 (0001ms, 1431ms total)
T3910 001:504 JLINK_ReadMem (0xE0000FF0, 0x0010 Bytes, ...) -- CPU_ReadMem(16 bytes @ 0xE0000FF0) - Data: 0D 00 00 00 E0 00 00 00 05 00 00 00 B1 00 00 00  returns 0x00 (0001ms, 1432ms total)
T3910 001:506 JLINK_ReadMem (0xE0000FD0, 0x0020 Bytes, ...) -- CPU_ReadMem(32 bytes @ 0xE0000FD0) - Data: 04 00 00 00 00 00 00 00 00 00 00 00 00 00 00 00 ...  returns 0x00 (0001ms, 1434ms total)
T3910 001:507 JLINK_ReadMem (0xE0040FF0, 0x0010 Bytes, ...) -- CPU_ReadMem(16 bytes @ 0xE0040FF0) - Data: 0D 00 00 00 90 00 00 00 05 00 00 00 B1 00 00 00  returns 0x00 (0002ms, 1436ms total)
T3910 001:509 JLINK_ReadMem (0xE0040FD0, 0x0020 Bytes, ...) -- CPU_ReadMem(32 bytes @ 0xE0040FD0) - Data: 04 00 00 00 00 00 00 00 00 00 00 00 00 00 00 00 ...  returns 0x00 (0002ms, 1438ms total)
T3910 001:511 JLINK_ReadMem (0xE0041FF0, 0x0010 Bytes, ...) -- CPU_ReadMem(16 bytes @ 0xE0041FF0) - Data: 0D 00 00 00 90 00 00 00 05 00 00 00 B1 00 00 00  returns 0x00 (0001ms, 1439ms total)
T3910 001:512 JLINK_ReadMem (0xE0041FD0, 0x0020 Bytes, ...) -- CPU_ReadMem(32 bytes @ 0xE0041FD0) - Data: 04 00 00 00 00 00 00 00 00 00 00 00 00 00 00 00 ...  returns 0x00 (0001ms, 1440ms total)
T3910 001:513 JLINK_ReadMemU32(0xE000EF40, 0x0001 Items, ...) -- CPU_ReadMem(4 bytes @ 0xE000EF40) - Data: 21 00 11 10  returns 0x01 (0001ms, 1441ms total)
T3910 001:514 JLINK_ReadMemU32(0xE000EF44, 0x0001 Items, ...) -- CPU_ReadMem(4 bytes @ 0xE000EF44) - Data: 11 00 00 11  returns 0x01 (0001ms, 1442ms total)
T3910 001:515 JLINK_ReadMemU32(0xE000ED00, 0x0001 Items, ...) -- CPU_ReadMem(4 bytes @ 0xE000ED00) - Data: 41 C2 0F 41  returns 0x01 (0001ms, 1443ms total)
T3910 001:516 JLINK_SetResetType(JLINKARM_RESET_TYPE_NORMAL)  returns JLINKARM_RESET_TYPE_NORMAL (0000ms, 1443ms total)
T3910 001:516 JLINK_Reset() -- CPU_WriteMem(4 bytes @ 0xE000EDF0) -- CPU_WriteMem(4 bytes @ 0xE000EDFC) >0x35 TIF> -- CPU_WriteMem(4 bytes @ 0xE000ED0C) -- CPU_ReadMem(4 bytes @ 0xE000EDF0) -- CPU_ReadMem(4 bytes @ 0xE000EDF0) -- CPU_WriteMem(4 bytes @ 0xE000EDF0) -- CPU_WriteMem(4 bytes @ 0xE000EDFC) -- CPU is running -- CPU_ReadMem(4 bytes @ 0xE000EDF0) -- CPU_WriteMem(4 bytes @ 0xE0002000) -- CPU_ReadMem(4 bytes @ 0xE000EDFC) -- CPU_ReadMem(4 bytes @ 0xE0001000) (0031ms, 1474ms total)
T3910 001:547 JLINK_ReadReg(R15 (PC))  returns 0x08000228 (0000ms, 1474ms total)
T3910 001:547 JLINK_ReadReg(XPSR)  returns 0x01000000 (0000ms, 1474ms total)
T3910 001:547 JLINK_Halt()  returns 0x00 (0000ms, 1474ms total)
T3910 001:547 JLINK_IsHalted()  returns TRUE (0000ms, 1474ms total)
T3910 001:547 JLINK_ReadMemU32(0xE000EDF0, 0x0001 Items, ...) -- CPU_ReadMem(4 bytes @ 0xE000EDF0) - Data: 03 00 03 00  returns 0x01 (0001ms, 1475ms total)
T3910 001:548 JLINK_WriteU32(0xE000EDF0, 0xA05F0003) -- CPU_WriteMem(4 bytes @ 0xE000EDF0)  returns 0x00 (0001ms, 1476ms total)
T3910 001:549 JLINK_WriteU32(0xE000EDFC, 0x01000000) -- CPU_WriteMem(4 bytes @ 0xE000EDFC)  returns 0x00 (0001ms, 1477ms total)
T3910 001:553 JLINK_GetHWStatus(...)  returns 0x00 (0000ms, 1477ms total)
T3910 001:554 JLINK_GetNumBPUnits(Type = 0xFFFFFF00)  returns 0x06 (0000ms, 1477ms total)
T3910 001:554 JLINK_GetNumBPUnits(Type = 0xF0)  returns 0x2000 (0000ms, 1477ms total)
T3910 001:554 JLINK_GetNumWPUnits()  returns 0x04 (0000ms, 1477ms total)
T3910 001:555 JLINK_GetSpeed()  returns 0x3E8 (0000ms, 1477ms total)
T3910 001:556 JLINK_ReadMemU32(0xE000E004, 0x0001 Items, ...) -- CPU_ReadMem(4 bytes @ 0xE000E004) - Data: 02 00 00 00  returns 0x01 (0001ms, 1478ms total)
T3910 001:557 JLINK_ReadMemU32(0xE000E004, 0x0001 Items, ...) -- CPU_ReadMem(4 bytes @ 0xE000E004) - Data: 02 00 00 00  returns 0x01 (0001ms, 1479ms total)
T3910 001:558 JLINK_WriteMem(0xE0001000, 0x001C Bytes, ...) - Data: 01 00 00 00 00 00 00 00 00 00 00 00 00 00 00 00 ... -- CPU_WriteMem(28 bytes @ 0xE0001000)  returns 0x1C (0002ms, 1481ms total)
T3910 001:560 JLINK_ReadMem (0xE0001000, 0x001C Bytes, ...) -- CPU_ReadMem(28 bytes @ 0xE0001000) - Data: 01 00 00 40 00 00 00 00 00 00 00 00 00 00 00 00 ...  returns 0x00 (0002ms, 1483ms total)
T3910 001:562 JLINK_ReadReg(R15 (PC))  returns 0x08000228 (0000ms, 1483ms total)
T3910 001:562 JLINK_ReadReg(XPSR)  returns 0x01000000 (0000ms, 1483ms total)
T3910 001:647 JLINK_SetResetType(JLINKARM_RESET_TYPE_NORMAL)  returns JLINKARM_RESET_TYPE_NORMAL (0001ms, 1484ms total)
T3910 001:648 JLINK_Reset() -- CPU_WriteMem(4 bytes @ 0xE000EDF0) -- CPU_WriteMem(4 bytes @ 0xE000EDFC) >0x35 TIF> -- CPU_WriteMem(4 bytes @ 0xE000ED0C) -- CPU_ReadMem(4 bytes @ 0xE000EDF0) -- CPU_ReadMem(4 bytes @ 0xE000EDF0) -- CPU_WriteMem(4 bytes @ 0xE000EDF0) -- CPU_WriteMem(4 bytes @ 0xE000EDFC) -- CPU is running -- CPU_ReadMem(4 bytes @ 0xE000EDF0) -- CPU_WriteMem(4 bytes @ 0xE0002000) -- CPU_ReadMem(4 bytes @ 0xE000EDFC) -- CPU_ReadMem(4 bytes @ 0xE0001000) (0029ms, 1513ms total)
T3910 001:678 JLINK_ReadReg(R15 (PC))  returns 0x08000228 (0000ms, 1513ms total)
T3910 001:678 JLINK_ReadReg(XPSR)  returns 0x01000000 (0000ms, 1513ms total)
T3910 001:679 JLINK_ReadMem (0x08000188, 0x003C Bytes, ...) -- CPU_ReadMem(128 bytes @ 0x08000180) -- Updating C cache (128 bytes @ 0x08000180) -- Read from C cache (60 bytes @ 0x08000188) - Data: 00 F0 02 F8 00 F0 3C F8 0A A0 90 E8 00 0C 82 44 ...  returns 0x00 (0004ms, 1517ms total)
T3910 001:683 JLINK_ReadMem (0x080001C4, 0x003C Bytes, ...) -- Read from C cache (60 bytes @ 0x080001C4) - Data: 10 3A 24 BF 78 C8 78 C1 FA D8 52 07 24 BF 30 C8 ...  returns 0x00 (0000ms, 1517ms total)
T3910 001:683 JLINK_ReadMem (0x08000200, 0x003C Bytes, ...) -- CPU_ReadMem(64 bytes @ 0x08000200) -- Updating C cache (64 bytes @ 0x08000200) -- Read from C cache (60 bytes @ 0x08000200) - Data: 0D F8 1F BD 10 B5 10 BD 00 F0 35 F8 11 46 FF F7 ...  returns 0x00 (0003ms, 1520ms total)
T3910 004:747 JLINK_ReadMem (0x20000000, 0x0001 Bytes, ...) -- CPU_ReadMem(64 bytes @ 0x20000000) -- Updating C cache (64 bytes @ 0x20000000) -- Read from C cache (1 bytes @ 0x20000000) - Data: AA  returns 0x00 (0003ms, 1523ms total)
T3C88 004:810 JLINK_SetBPEx(Addr = 0x08001180, Type = 0xFFFFFFF2)  returns 0x00000001 (0000ms, 1523ms total)
T3C88 004:810 JLINK_SetBPEx(Addr = 0x08001044, Type = 0xFFFFFFF2)  returns 0x00000002 (0000ms, 1523ms total)
T3C88 004:810 JLINK_SetBPEx(Addr = 0x08001038, Type = 0xFFFFFFF2)  returns 0x00000003 (0000ms, 1523ms total)
T3C88 004:810 JLINK_SetBPEx(Addr = 0x08000522, Type = 0xFFFFFFF2)  returns 0x00000004 (0000ms, 1523ms total)
T3C88 004:810 JLINK_SetBPEx(Addr = 0x0800054C, Type = 0xFFFFFFF2)  returns 0x00000005 (0000ms, 1523ms total)
T3C88 004:810 JLINK_SetBPEx(Addr = 0x08001118, Type = 0xFFFFFFF2)  returns 0x00000006 (0000ms, 1523ms total)
T3C88 004:810 JLINK_SetBPEx(Addr = 0x080010FE, Type = 0xFFFFFFF2) -- BP[0] @ 0x08001180 converted into FlashBP  returns 0x00000007 (0000ms, 1523ms total)
T3C88 004:810 JLINK_Go() -- Read from C cache (2 bytes @ 0x08000228) -- CPU_ReadMem(64 bytes @ 0x08000240) -- Updating C cache (64 bytes @ 0x08000240) -- Read from C cache (4 bytes @ 0x08000258) -- Simulated -- Read from C cache (2 bytes @ 0x0800022A) -- Not simulated -- CPU_ReadMem(2048 bytes @ 0x08001000) -- Updating C cache (2048 bytes @ 0x08001000) -- Read from C cache (2048 bytes @ 0x08001000) -- Updating flash cache (2048 bytes @ 0x08001000)
 -- Programming range 0x08001000 - 0x080017FF (001 Sector, 2 KB) -- CPU clock frequency: 7999 kHz -- CPU_WriteMem(4 bytes @ 0xE0002000) -- CPU_WriteMem(4 bytes @ 0xE0002000) -- CPU_WriteMem(4 bytes @ 0xE0002000) -- CPU_WriteMem(4 bytes @ 0xE0002000) -- CPU_WriteMem(4 bytes @ 0xE0002000) -- CPU_WriteMem(4 bytes @ 0xE0002000) -- CPU_ReadMem(4 bytes @ 0xE0001000) -- CPU_WriteMem(4 bytes @ 0xE0002008) -- CPU_WriteMem(4 bytes @ 0xE000200C) -- CPU_WriteMem(4 bytes @ 0xE0002010)
 -- CPU_WriteMem(4 bytes @ 0xE0002014) -- CPU_WriteMem(4 bytes @ 0xE0002018) -- CPU_WriteMem(4 bytes @ 0xE000201C) (0661ms, 2184ms total)
T3C88 005:572 JLINK_IsHalted()  returns TRUE (0011ms, 2195ms total)
T3C88 005:583 JLINK_Halt()  returns 0x00 (0000ms, 2184ms total)
T3C88 005:583 JLINK_IsHalted()  returns TRUE (0000ms, 2184ms total)
T3C88 005:583 JLINK_IsHalted()  returns TRUE (0000ms, 2184ms total)
T3C88 005:583 JLINK_IsHalted()  returns TRUE (0000ms, 2184ms total)
T3C88 005:583 JLINK_ReadReg(R15 (PC))  returns 0x08001180 (0000ms, 2184ms total)
T3C88 005:583 JLINK_ReadReg(XPSR)  returns 0x21000000 (0000ms, 2184ms total)
T3C88 005:583 JLINK_ClrBPEx(BPHandle = 0x00000001)  returns 0x00 (0000ms, 2184ms total)
T3C88 005:583 JLINK_ClrBPEx(BPHandle = 0x00000002)  returns 0x00 (0000ms, 2184ms total)
T3C88 005:583 JLINK_ClrBPEx(BPHandle = 0x00000003)  returns 0x00 (0000ms, 2184ms total)
T3C88 005:583 JLINK_ClrBPEx(BPHandle = 0x00000004)  returns 0x00 (0000ms, 2184ms total)
T3C88 005:583 JLINK_ClrBPEx(BPHandle = 0x00000005)  returns 0x00 (0000ms, 2184ms total)
T3C88 005:583 JLINK_ClrBPEx(BPHandle = 0x00000006)  returns 0x00 (0000ms, 2184ms total)
T3C88 005:584 JLINK_ClrBPEx(BPHandle = 0x00000007)  returns 0x00 (0000ms, 2185ms total)
T3C88 005:584 JLINK_ReadMemU32(0xE000ED30, 0x0001 Items, ...) -- CPU_ReadMem(4 bytes @ 0xE000ED30) - Data: 02 00 00 00  returns 0x01 (0001ms, 2186ms total)
T3C88 005:585 JLINK_ReadMemU32(0xE0001028, 0x0001 Items, ...) -- CPU_ReadMem(4 bytes @ 0xE0001028) - Data: 00 00 00 00  returns 0x01 (0001ms, 2187ms total)
T3C88 005:586 JLINK_ReadMemU32(0xE0001038, 0x0001 Items, ...) -- CPU_ReadMem(4 bytes @ 0xE0001038) - Data: 00 02 00 00  returns 0x01 (0001ms, 2188ms total)
T3C88 005:587 JLINK_ReadMemU32(0xE0001048, 0x0001 Items, ...) -- CPU_ReadMem(4 bytes @ 0xE0001048) - Data: 00 00 00 00  returns 0x01 (0001ms, 2189ms total)
T3C88 005:588 JLINK_ReadMemU32(0xE0001058, 0x0001 Items, ...) -- CPU_ReadMem(4 bytes @ 0xE0001058) - Data: 00 00 00 00  returns 0x01 (0001ms, 2190ms total)
T3C88 005:589 JLINK_ReadReg(R0)  returns 0x200002C8 (0000ms, 2190ms total)
T3C88 005:589 JLINK_ReadReg(R1)  returns 0x20000AC8 (0000ms, 2190ms total)
T3C88 005:589 JLINK_ReadReg(R2)  returns 0x20000AC8 (0000ms, 2190ms total)
T3C88 005:589 JLINK_ReadReg(R3)  returns 0x20000AC8 (0000ms, 2190ms total)
T3C88 005:589 JLINK_ReadReg(R4)  returns 0x00000000 (0000ms, 2190ms total)
T3C88 005:589 JLINK_ReadReg(R5)  returns 0x20000268 (0000ms, 2190ms total)
T3C88 005:589 JLINK_ReadReg(R6)  returns 0x00000000 (0000ms, 2190ms total)
T3C88 005:589 JLINK_ReadReg(R7)  returns 0x00000000 (0000ms, 2190ms total)
T3C88 005:589 JLINK_ReadReg(R8)  returns 0x00000000 (0000ms, 2190ms total)
T3C88 005:589 JLINK_ReadReg(R9)  returns 0x00000000 (0000ms, 2190ms total)
T3C88 005:589 JLINK_ReadReg(R10)  returns 0x080012EC (0000ms, 2190ms total)
T3C88 005:589 JLINK_ReadReg(R11)  returns 0x00000000 (0000ms, 2190ms total)
T3C88 005:589 JLINK_ReadReg(R12)  returns 0x200002A8 (0001ms, 2191ms total)
T3C88 005:590 JLINK_ReadReg(R13 (SP))  returns 0x200012C8 (0000ms, 2191ms total)
T3C88 005:590 JLINK_ReadReg(R14)  returns 0x08000217 (0000ms, 2191ms total)
T3C88 005:590 JLINK_ReadReg(R15 (PC))  returns 0x08001180 (0000ms, 2191ms total)
T3C88 005:590 JLINK_ReadReg(XPSR)  returns 0x21000000 (0000ms, 2191ms total)
T3C88 005:590 JLINK_ReadReg(MSP)  returns 0x200012C8 (0000ms, 2191ms total)
T3C88 005:590 JLINK_ReadReg(PSP)  returns 0x00000000 (0000ms, 2191ms total)
T3C88 005:590 JLINK_ReadReg(CFBP)  returns 0x04000000 (0000ms, 2191ms total)
T3C88 005:590 JLINK_ReadReg(FPSCR)  returns 0x03000000 (0018ms, 2209ms total)
T3C88 005:608 JLINK_ReadReg(FPS0)  returns 0x00000000 (0000ms, 2209ms total)
T3C88 005:608 JLINK_ReadReg(FPS1)  returns 0x00000000 (0000ms, 2209ms total)
T3C88 005:608 JLINK_ReadReg(FPS2)  returns 0x00000000 (0000ms, 2209ms total)
T3C88 005:608 JLINK_ReadReg(FPS3)  returns 0x00000000 (0000ms, 2209ms total)
T3C88 005:608 JLINK_ReadReg(FPS4)  returns 0x00000000 (0000ms, 2209ms total)
T3C88 005:608 JLINK_ReadReg(FPS5)  returns 0x00000000 (0000ms, 2209ms total)
T3C88 005:608 JLINK_ReadReg(FPS6)  returns 0x00000000 (0000ms, 2209ms total)
T3C88 005:608 JLINK_ReadReg(FPS7)  returns 0x00000000 (0001ms, 2210ms total)
T3C88 005:609 JLINK_ReadReg(FPS8)  returns 0x00000000 (0000ms, 2210ms total)
T3C88 005:609 JLINK_ReadReg(FPS9)  returns 0x00000000 (0000ms, 2210ms total)
T3C88 005:609 JLINK_ReadReg(FPS10)  returns 0x00000000 (0000ms, 2210ms total)
T3C88 005:609 JLINK_ReadReg(FPS11)  returns 0x00000000 (0000ms, 2210ms total)
T3C88 005:609 JLINK_ReadReg(FPS12)  returns 0x00000000 (0000ms, 2210ms total)
T3C88 005:609 JLINK_ReadReg(FPS13)  returns 0x00000000 (0000ms, 2210ms total)
T3C88 005:609 JLINK_ReadReg(FPS14)  returns 0x00000000 (0000ms, 2210ms total)
T3C88 005:609 JLINK_ReadReg(FPS15)  returns 0x00000000 (0000ms, 2210ms total)
T3C88 005:609 JLINK_ReadReg(FPS16)  returns 0x00000000 (0000ms, 2210ms total)
T3C88 005:609 JLINK_ReadReg(FPS17)  returns 0x00000000 (0000ms, 2210ms total)
T3C88 005:609 JLINK_ReadReg(FPS18)  returns 0x00000000 (0000ms, 2210ms total)
T3C88 005:609 JLINK_ReadReg(FPS19)  returns 0x00000000 (0000ms, 2210ms total)
T3C88 005:609 JLINK_ReadReg(FPS20)  returns 0x00000000 (0000ms, 2210ms total)
T3C88 005:609 JLINK_ReadReg(FPS21)  returns 0x00000000 (0000ms, 2210ms total)
T3C88 005:609 JLINK_ReadReg(FPS22)  returns 0x00000000 (0001ms, 2211ms total)
T3C88 005:610 JLINK_ReadReg(FPS23)  returns 0x00000000 (0000ms, 2211ms total)
T3C88 005:610 JLINK_ReadReg(FPS24)  returns 0x00000000 (0000ms, 2211ms total)
T3C88 005:610 JLINK_ReadReg(FPS25)  returns 0x00000000 (0000ms, 2211ms total)
T3C88 005:610 JLINK_ReadReg(FPS26)  returns 0x00000000 (0000ms, 2211ms total)
T3C88 005:610 JLINK_ReadReg(FPS27)  returns 0x00000000 (0000ms, 2211ms total)
T3C88 005:610 JLINK_ReadReg(FPS28)  returns 0x00000000 (0000ms, 2211ms total)
T3C88 005:610 JLINK_ReadReg(FPS29)  returns 0x00000000 (0000ms, 2211ms total)
T3C88 005:610 JLINK_ReadReg(FPS30)  returns 0x00000000 (0000ms, 2211ms total)
T3C88 005:610 JLINK_ReadReg(FPS31)  returns 0x00000000 (0000ms, 2211ms total)
T3910 005:613 JLINK_ReadMem (0x20000000, 0x0001 Bytes, ...) -- CPU_ReadMem(64 bytes @ 0x20000000) -- Updating C cache (64 bytes @ 0x20000000) -- Read from C cache (1 bytes @ 0x20000000) - Data: 00  returns 0x00 (0003ms, 2214ms total)
T3910 005:623 JLINK_ReadMem (0x08001094, 0x003C Bytes, ...) -- Read from flash cache (60 bytes @ 0x08001094) - Data: 70 B5 00 24 00 25 36 48 00 78 05 28 62 D2 DF E8 ...  returns 0x00 (0001ms, 2215ms total)
T3910 005:624 JLINK_ReadMem (0x080010D0, 0x003C Bytes, ...) -- Read from flash cache (60 bytes @ 0x080010D0) - Data: FF F7 86 FE 60 1C C4 B2 08 2C F7 DB 02 20 25 49 ...  returns 0x00 (0000ms, 2215ms total)
T3910 005:624 JLINK_ReadMem (0x0800110C, 0x003C Bytes, ...) -- Read from flash cache (60 bytes @ 0x0800110C) - Data: 1B 49 08 70 08 46 00 78 C8 28 05 DB 00 20 08 70 ...  returns 0x00 (0000ms, 2215ms total)
T3910 005:624 JLINK_ReadMem (0x08001148, 0x003C Bytes, ...) -- Read from flash cache (60 bytes @ 0x08001148) -- Merging zombie BP[0]: 0xF000 @ 0x08001180 - Data: 0A 49 08 70 02 E0 04 20 08 49 08 70 0C E0 FF F7 ...  returns 0x00 (0000ms, 2215ms total)
T3910 005:624 JLINK_ReadMem (0x08001184, 0x003C Bytes, ...) -- Read from flash cache (60 bytes @ 0x08001184) - Data: FF F7 F4 F8 00 BF FE E7 70 B5 4F F0 00 64 00 25 ...  returns 0x00 (0000ms, 2215ms total)
T3C88 006:789 JLINK_SetBPEx(Addr = 0x08001044, Type = 0xFFFFFFF2)  returns 0x00000008 (0000ms, 2215ms total)
T3C88 006:789 JLINK_SetBPEx(Addr = 0x08001038, Type = 0xFFFFFFF2)  returns 0x00000009 (0000ms, 2215ms total)
T3C88 006:789 JLINK_SetBPEx(Addr = 0x08000522, Type = 0xFFFFFFF2)  returns 0x0000000A (0000ms, 2215ms total)
T3C88 006:789 JLINK_SetBPEx(Addr = 0x0800054C, Type = 0xFFFFFFF2)  returns 0x0000000B (0000ms, 2215ms total)
T3C88 006:789 JLINK_SetBPEx(Addr = 0x08001118, Type = 0xFFFFFFF2)  returns 0x0000000C (0000ms, 2215ms total)
T3C88 006:789 JLINK_SetBPEx(Addr = 0x080010FE, Type = 0xFFFFFFF2)  returns 0x0000000D (0000ms, 2215ms total)
T3C88 006:789 JLINK_Go() -- Merging zombie BP[0]: 0xF000 @ 0x08001180 -- Merging zombie BP[0]: 0xF000 @ 0x08001180 -- CPU_ReadMem(4 bytes @ 0xE0001004) -- Read from flash cache (2 bytes @ 0x08001182) -- Simulated -- Read from flash cache (2 bytes @ 0x0800118C) -- CPU_WriteMem(16 bytes @ 0x200012B8) -- Simulated -- Read from flash cache (2 bytes @ 0x0800118E) -- Read from flash cache (2 bytes @ 0x08001190) -- Simulated -- Read from flash cache (2 bytes @ 0x08001192) -- Simulated
 -- Read from flash cache (2 bytes @ 0x08001194) -- Simulated -- Read from flash cache (2 bytes @ 0x08001196) -- Read from flash cache (2 bytes @ 0x08001198) -- Simulated -- CPU_ReadMem(64 bytes @ 0x08000D80) -- Updating C cache (64 bytes @ 0x08000D80) -- Read from C cache (2 bytes @ 0x08000D88) -- CPU_WriteMem(16 bytes @ 0x200012A8) -- Simulated -- Read from C cache (2 bytes @ 0x08000D8A) -- Simulated -- Read from C cache (2 bytes @ 0x08000D8C) -- Simulated -- Read from C cache (2 bytes @ 0x08000D8E)
 -- Simulated -- Read from flash cache (2048 bytes @ 0x08001000) -- Programming range 0x08001000 - 0x080017FF (001 Sector, 2 KB) -- CPU clock frequency: 8003 kHz -- CPU_WriteMem(4 bytes @ 0xE0002000) -- CPU_WriteMem(4 bytes @ 0xE0002000) -- CPU_WriteMem(4 bytes @ 0xE0002000) -- CPU_WriteMem(4 bytes @ 0xE0002000) -- CPU_WriteMem(4 bytes @ 0xE0002000) -- CPU_WriteMem(4 bytes @ 0xE0002000) -- CPU_ReadMem(4 bytes @ 0xE0001000) -- CPU_WriteMem(4 bytes @ 0xE0002008) -- CPU_WriteMem(4 bytes @ 0xE000200C)
 -- CPU_WriteMem(4 bytes @ 0xE0002010) -- CPU_WriteMem(4 bytes @ 0xE0002014) -- CPU_WriteMem(4 bytes @ 0xE0002018) -- CPU_WriteMem(4 bytes @ 0xE000201C) (0616ms, 2831ms total)
T3C88 007:505 JLINK_IsHalted()  returns TRUE (0011ms, 2842ms total)
T3C88 007:516 JLINK_Halt()  returns 0x00 (0000ms, 2831ms total)
T3C88 007:516 JLINK_IsHalted()  returns TRUE (0000ms, 2831ms total)
T3C88 007:516 JLINK_IsHalted()  returns TRUE (0000ms, 2831ms total)
T3C88 007:516 JLINK_IsHalted()  returns TRUE (0000ms, 2831ms total)
T3C88 007:516 JLINK_ReadReg(R15 (PC))  returns 0x080010FE (0000ms, 2831ms total)
T3C88 007:516 JLINK_ReadReg(XPSR)  returns 0x21000046 (0000ms, 2831ms total)
T3C88 007:516 JLINK_ClrBPEx(BPHandle = 0x00000008)  returns 0x00 (0000ms, 2831ms total)
T3C88 007:516 JLINK_ClrBPEx(BPHandle = 0x00000009)  returns 0x00 (0000ms, 2831ms total)
T3C88 007:516 JLINK_ClrBPEx(BPHandle = 0x0000000A)  returns 0x00 (0000ms, 2831ms total)
T3C88 007:516 JLINK_ClrBPEx(BPHandle = 0x0000000B)  returns 0x00 (0000ms, 2831ms total)
T3C88 007:516 JLINK_ClrBPEx(BPHandle = 0x0000000C)  returns 0x00 (0000ms, 2831ms total)
T3C88 007:516 JLINK_ClrBPEx(BPHandle = 0x0000000D)  returns 0x00 (0000ms, 2831ms total)
T3C88 007:517 JLINK_ReadMemU32(0xE000ED30, 0x0001 Items, ...) -- CPU_ReadMem(4 bytes @ 0xE000ED30) - Data: 02 00 00 00  returns 0x01 (0001ms, 2833ms total)
T3C88 007:518 JLINK_ReadMemU32(0xE0001028, 0x0001 Items, ...) -- CPU_ReadMem(4 bytes @ 0xE0001028) - Data: 00 00 00 00  returns 0x01 (0001ms, 2834ms total)
T3C88 007:519 JLINK_ReadMemU32(0xE0001038, 0x0001 Items, ...) -- CPU_ReadMem(4 bytes @ 0xE0001038) - Data: 00 02 00 00  returns 0x01 (0001ms, 2835ms total)
T3C88 007:520 JLINK_ReadMemU32(0xE0001048, 0x0001 Items, ...) -- CPU_ReadMem(4 bytes @ 0xE0001048) - Data: 00 00 00 00  returns 0x01 (0000ms, 2835ms total)
T3C88 007:520 JLINK_ReadMemU32(0xE0001058, 0x0001 Items, ...) -- CPU_ReadMem(4 bytes @ 0xE0001058) - Data: 00 00 00 00  returns 0x01 (0002ms, 2837ms total)
T3C88 007:522 JLINK_ReadReg(R0)  returns 0x00000003 (0000ms, 2837ms total)
T3C88 007:522 JLINK_ReadReg(R1)  returns 0x20000035 (0000ms, 2837ms total)
T3C88 007:522 JLINK_ReadReg(R2)  returns 0x00000080 (0000ms, 2837ms total)
T3C88 007:522 JLINK_ReadReg(R3)  returns 0x00000080 (0000ms, 2837ms total)
T3C88 007:522 JLINK_ReadReg(R4)  returns 0x00000008 (0000ms, 2837ms total)
T3C88 007:522 JLINK_ReadReg(R5)  returns 0x00000000 (0000ms, 2837ms total)
T3C88 007:522 JLINK_ReadReg(R6)  returns 0x00000000 (0000ms, 2837ms total)
T3C88 007:522 JLINK_ReadReg(R7)  returns 0x00000000 (0000ms, 2837ms total)
T3C88 007:522 JLINK_ReadReg(R8)  returns 0x00000000 (0000ms, 2837ms total)
T3C88 007:522 JLINK_ReadReg(R9)  returns 0x00000000 (0000ms, 2837ms total)
T3C88 007:522 JLINK_ReadReg(R10)  returns 0x080012EC (0000ms, 2837ms total)
T3C88 007:522 JLINK_ReadReg(R11)  returns 0x00000000 (0000ms, 2837ms total)
T3C88 007:522 JLINK_ReadReg(R12)  returns 0x00000001 (0001ms, 2838ms total)
T3C88 007:523 JLINK_ReadReg(R13 (SP))  returns 0x20001240 (0000ms, 2838ms total)
T3C88 007:523 JLINK_ReadReg(R14)  returns 0x080010F1 (0000ms, 2838ms total)
T3C88 007:523 JLINK_ReadReg(R15 (PC))  returns 0x080010FE (0000ms, 2838ms total)
T3C88 007:523 JLINK_ReadReg(XPSR)  returns 0x21000046 (0000ms, 2838ms total)
T3C88 007:523 JLINK_ReadReg(MSP)  returns 0x20001240 (0000ms, 2838ms total)
T3C88 007:523 JLINK_ReadReg(PSP)  returns 0x00000000 (0000ms, 2838ms total)
T3C88 007:523 JLINK_ReadReg(CFBP)  returns 0x00000000 (0000ms, 2838ms total)
T3C88 007:523 JLINK_ReadReg(FPSCR)  returns 0x03000000 (0018ms, 2856ms total)
T3C88 007:541 JLINK_ReadReg(FPS0)  returns 0x00000000 (0000ms, 2856ms total)
T3C88 007:541 JLINK_ReadReg(FPS1)  returns 0x00000000 (0000ms, 2856ms total)
T3C88 007:541 JLINK_ReadReg(FPS2)  returns 0x00000000 (0000ms, 2856ms total)
T3C88 007:541 JLINK_ReadReg(FPS3)  returns 0x00000000 (0000ms, 2856ms total)
T3C88 007:541 JLINK_ReadReg(FPS4)  returns 0x00000000 (0000ms, 2856ms total)
T3C88 007:541 JLINK_ReadReg(FPS5)  returns 0x00000000 (0000ms, 2856ms total)
T3C88 007:541 JLINK_ReadReg(FPS6)  returns 0x00000000 (0000ms, 2856ms total)
T3C88 007:541 JLINK_ReadReg(FPS7)  returns 0x00000000 (0000ms, 2856ms total)
T3C88 007:541 JLINK_ReadReg(FPS8)  returns 0x00000000 (0000ms, 2856ms total)
T3C88 007:541 JLINK_ReadReg(FPS9)  returns 0x00000000 (0000ms, 2856ms total)
T3C88 007:541 JLINK_ReadReg(FPS10)  returns 0x00000000 (0000ms, 2856ms total)
T3C88 007:541 JLINK_ReadReg(FPS11)  returns 0x00000000 (0000ms, 2856ms total)
T3C88 007:541 JLINK_ReadReg(FPS12)  returns 0x00000000 (0001ms, 2857ms total)
T3C88 007:542 JLINK_ReadReg(FPS13)  returns 0x00000000 (0000ms, 2857ms total)
T3C88 007:542 JLINK_ReadReg(FPS14)  returns 0x00000000 (0000ms, 2857ms total)
T3C88 007:542 JLINK_ReadReg(FPS15)  returns 0x00000000 (0000ms, 2857ms total)
T3C88 007:542 JLINK_ReadReg(FPS16)  returns 0x00000000 (0000ms, 2857ms total)
T3C88 007:542 JLINK_ReadReg(FPS17)  returns 0x00000000 (0000ms, 2857ms total)
T3C88 007:542 JLINK_ReadReg(FPS18)  returns 0x00000000 (0000ms, 2857ms total)
T3C88 007:542 JLINK_ReadReg(FPS19)  returns 0x00000000 (0000ms, 2857ms total)
T3C88 007:542 JLINK_ReadReg(FPS20)  returns 0x00000000 (0000ms, 2857ms total)
T3C88 007:542 JLINK_ReadReg(FPS21)  returns 0x00000000 (0000ms, 2857ms total)
T3C88 007:542 JLINK_ReadReg(FPS22)  returns 0x00000000 (0000ms, 2857ms total)
T3C88 007:542 JLINK_ReadReg(FPS23)  returns 0x00000000 (0000ms, 2857ms total)
T3C88 007:542 JLINK_ReadReg(FPS24)  returns 0x00000000 (0000ms, 2857ms total)
T3C88 007:542 JLINK_ReadReg(FPS25)  returns 0x00000000 (0000ms, 2857ms total)
T3C88 007:542 JLINK_ReadReg(FPS26)  returns 0x00000000 (0000ms, 2857ms total)
T3C88 007:543 JLINK_ReadReg(FPS27)  returns 0x00000000 (0000ms, 2858ms total)
T3C88 007:543 JLINK_ReadReg(FPS28)  returns 0x00000000 (0000ms, 2858ms total)
T3C88 007:543 JLINK_ReadReg(FPS29)  returns 0x00000000 (0000ms, 2858ms total)
T3C88 007:543 JLINK_ReadReg(FPS30)  returns 0x00000000 (0000ms, 2858ms total)
T3C88 007:543 JLINK_ReadReg(FPS31)  returns 0x00000000 (0000ms, 2858ms total)
T3910 007:544 JLINK_ReadMem (0x2000124C, 0x0004 Bytes, ...) -- CPU_ReadMem(64 bytes @ 0x20001240) -- Updating C cache (64 bytes @ 0x20001240) -- Read from C cache (4 bytes @ 0x2000124C) - Data: 2F 05 00 08  returns 0x00 (0002ms, 2860ms total)
T3910 007:546 JLINK_ReadMem (0x20001240, 0x0004 Bytes, ...) -- Read from C cache (4 bytes @ 0x20001240) - Data: 00 00 00 00  returns 0x00 (0000ms, 2860ms total)
T3910 007:546 JLINK_ReadMem (0x20001244, 0x0004 Bytes, ...) -- Read from C cache (4 bytes @ 0x20001244) - Data: 68 02 00 20  returns 0x00 (0000ms, 2860ms total)
T3910 007:546 JLINK_ReadMem (0x20001248, 0x0004 Bytes, ...) -- Read from C cache (4 bytes @ 0x20001248) - Data: 00 00 00 00  returns 0x00 (0000ms, 2860ms total)
T3910 007:546 JLINK_ReadMem (0x20001254, 0x0004 Bytes, ...) -- Read from C cache (4 bytes @ 0x20001254) - Data: F7 04 00 08  returns 0x00 (0000ms, 2860ms total)
T3910 007:547 JLINK_ReadMem (0x20001250, 0x0004 Bytes, ...) -- Read from C cache (4 bytes @ 0x20001250) - Data: 00 00 00 00  returns 0x00 (0000ms, 2860ms total)
T3910 007:547 JLINK_ReadMem (0x2000125C, 0x0004 Bytes, ...) -- Read from C cache (4 bytes @ 0x2000125C) - Data: E9 FF FF FF  returns 0x00 (0000ms, 2860ms total)
T3910 007:547 JLINK_ReadMem (0x20001278, 0x0004 Bytes, ...) -- Read from C cache (4 bytes @ 0x20001278) - Data: 8A 11 00 08  returns 0x00 (0000ms, 2860ms total)
T3910 007:547 JLINK_ReadMem (0x2000127C, 0x0004 Bytes, ...) -- Read from C cache (4 bytes @ 0x2000127C) - Data: 00 00 00 21  returns 0x00 (0000ms, 2860ms total)
T3910 007:547 JLINK_ReadMem (0x20001274, 0x0004 Bytes, ...) -- Read from C cache (4 bytes @ 0x20001274) - Data: AD 03 00 08  returns 0x00 (0000ms, 2860ms total)
T3910 007:547 JLINK_ReadMem (0xE000ED28, 0x0004 Bytes, ...) -- CPU_ReadMem(4 bytes @ 0xE000ED28) - Data: 00 00 00 00  returns 0x00 (0001ms, 2861ms total)
T3910 007:548 JLINK_ReadMem (0x200012C4, 0x0004 Bytes, ...) -- CPU_ReadMem(64 bytes @ 0x200012C0) -- Updating C cache (64 bytes @ 0x200012C0) -- Read from C cache (4 bytes @ 0x200012C4) - Data: 89 11 00 08  returns 0x00 (0003ms, 2864ms total)
T3910 007:551 JLINK_ReadMem (0x200012C8, 0x0004 Bytes, ...) -- Read from C cache (4 bytes @ 0x200012C8) - Data: AA 55 AA 55  returns 0x00 (0000ms, 2864ms total)
T3910 007:551 JLINK_ReadMem (0x20000035, 0x0001 Bytes, ...) -- CPU_ReadMem(64 bytes @ 0x20000000) -- Updating C cache (64 bytes @ 0x20000000) -- Read from C cache (1 bytes @ 0x20000035) - Data: 03  returns 0x00 (0003ms, 2867ms total)
T3910 007:554 JLINK_ReadMem (0x20000036, 0x0001 Bytes, ...) -- Read from C cache (1 bytes @ 0x20000036) - Data: 00  returns 0x00 (0000ms, 2867ms total)
T3910 007:570 JLINK_ReadMem (0x20000000, 0x0001 Bytes, ...) -- Read from C cache (1 bytes @ 0x20000000) - Data: 01  returns 0x00 (0000ms, 2867ms total)
T3910 007:577 JLINK_ReadMem (0x080010F8, 0x003C Bytes, ...) -- Read from flash cache (60 bytes @ 0x080010F8) - Data: 03 20 1E 49 08 70 00 20 1E 49 08 70 34 E0 1D 48 ...  returns 0x00 (0000ms, 2867ms total)
T3C88 009:133 JLINK_Step() -- Read from flash cache (2 bytes @ 0x080010FE) -- CPU_ReadMem(4 bytes @ 0xE0001004) -- Simulated  returns 0x00 (0002ms, 2869ms total)
T3C88 009:135 JLINK_ReadReg(R15 (PC))  returns 0x08001100 (0000ms, 2869ms total)
T3C88 009:135 JLINK_ReadReg(XPSR)  returns 0x61000046 (0000ms, 2869ms total)
T3C88 009:135 JLINK_SetBPEx(Addr = 0x08001044, Type = 0xFFFFFFF2)  returns 0x0000000E (0000ms, 2869ms total)
T3C88 009:135 JLINK_SetBPEx(Addr = 0x08001038, Type = 0xFFFFFFF2)  returns 0x0000000F (0001ms, 2870ms total)
T3C88 009:136 JLINK_SetBPEx(Addr = 0x08000522, Type = 0xFFFFFFF2)  returns 0x00000010 (0000ms, 2870ms total)
T3C88 009:136 JLINK_SetBPEx(Addr = 0x0800054C, Type = 0xFFFFFFF2)  returns 0x00000011 (0000ms, 2870ms total)
T3C88 009:136 JLINK_SetBPEx(Addr = 0x08001118, Type = 0xFFFFFFF2)  returns 0x00000012 (0000ms, 2870ms total)
T3C88 009:136 JLINK_SetBPEx(Addr = 0x080010FE, Type = 0xFFFFFFF2)  returns 0x00000013 (0000ms, 2870ms total)
T3C88 009:136 JLINK_Go() -- CPU_WriteMem(4 bytes @ 0xE0002000) -- CPU_WriteMem(4 bytes @ 0xE0002000) -- CPU_WriteMem(4 bytes @ 0xE0002000) -- CPU_WriteMem(4 bytes @ 0xE0002000) -- CPU_WriteMem(4 bytes @ 0xE0002000) -- CPU_WriteMem(4 bytes @ 0xE0002000) -- CPU_ReadMem(4 bytes @ 0xE0001000) -- CPU_WriteMem(4 bytes @ 0xE0001004) (0010ms, 2880ms total)
T3C88 009:248 JLINK_IsHalted()  returns TRUE (0011ms, 2891ms total)
T3C88 009:259 JLINK_Halt()  returns 0x00 (0000ms, 2880ms total)
T3C88 009:259 JLINK_IsHalted()  returns TRUE (0000ms, 2880ms total)
T3C88 009:259 JLINK_IsHalted()  returns TRUE (0000ms, 2880ms total)
T3C88 009:259 JLINK_IsHalted()  returns TRUE (0000ms, 2880ms total)
T3C88 009:259 JLINK_ReadReg(R15 (PC))  returns 0x08001038 (0000ms, 2880ms total)
T3C88 009:259 JLINK_ReadReg(XPSR)  returns 0x21000046 (0000ms, 2880ms total)
T3C88 009:259 JLINK_ClrBPEx(BPHandle = 0x0000000E)  returns 0x00 (0000ms, 2880ms total)
T3C88 009:259 JLINK_ClrBPEx(BPHandle = 0x0000000F)  returns 0x00 (0000ms, 2880ms total)
T3C88 009:259 JLINK_ClrBPEx(BPHandle = 0x00000010)  returns 0x00 (0000ms, 2880ms total)
T3C88 009:259 JLINK_ClrBPEx(BPHandle = 0x00000011)  returns 0x00 (0000ms, 2880ms total)
T3C88 009:259 JLINK_ClrBPEx(BPHandle = 0x00000012)  returns 0x00 (0000ms, 2880ms total)
T3C88 009:259 JLINK_ClrBPEx(BPHandle = 0x00000013)  returns 0x00 (0000ms, 2880ms total)
T3C88 009:259 JLINK_ReadMemU32(0xE000ED30, 0x0001 Items, ...) -- CPU_ReadMem(4 bytes @ 0xE000ED30) - Data: 02 00 00 00  returns 0x01 (0001ms, 2881ms total)
T3C88 009:260 JLINK_ReadMemU32(0xE0001028, 0x0001 Items, ...) -- CPU_ReadMem(4 bytes @ 0xE0001028) - Data: 00 00 00 00  returns 0x01 (0001ms, 2882ms total)
T3C88 009:261 JLINK_ReadMemU32(0xE0001038, 0x0001 Items, ...) -- CPU_ReadMem(4 bytes @ 0xE0001038) - Data: 00 02 00 00  returns 0x01 (0001ms, 2883ms total)
T3C88 009:262 JLINK_ReadMemU32(0xE0001048, 0x0001 Items, ...) -- CPU_ReadMem(4 bytes @ 0xE0001048) - Data: 00 00 00 00  returns 0x01 (0001ms, 2884ms total)
T3C88 009:263 JLINK_ReadMemU32(0xE0001058, 0x0001 Items, ...) -- CPU_ReadMem(4 bytes @ 0xE0001058) - Data: 00 00 00 00  returns 0x01 (0001ms, 2885ms total)
T3C88 009:264 JLINK_ReadReg(R0)  returns 0x00009056 (0000ms, 2885ms total)
T3C88 009:264 JLINK_ReadReg(R1)  returns 0x20000014 (0000ms, 2885ms total)
T3C88 009:264 JLINK_ReadReg(R2)  returns 0x200000C4 (0000ms, 2885ms total)
T3C88 009:264 JLINK_ReadReg(R3)  returns 0xE000E000 (0000ms, 2885ms total)
T3C88 009:264 JLINK_ReadReg(R4)  returns 0x00000000 (0000ms, 2885ms total)
T3C88 009:264 JLINK_ReadReg(R5)  returns 0x0000001B (0000ms, 2885ms total)
T3C88 009:264 JLINK_ReadReg(R6)  returns 0x00000001 (0000ms, 2885ms total)
T3C88 009:264 JLINK_ReadReg(R7)  returns 0x00000000 (0000ms, 2885ms total)
T3C88 009:264 JLINK_ReadReg(R8)  returns 0x00000000 (0000ms, 2885ms total)
T3C88 009:264 JLINK_ReadReg(R9)  returns 0x00000000 (0000ms, 2885ms total)
T3C88 009:264 JLINK_ReadReg(R10)  returns 0x080012EC (0000ms, 2885ms total)
T3C88 009:264 JLINK_ReadReg(R11)  returns 0x00000000 (0000ms, 2885ms total)
T3C88 009:264 JLINK_ReadReg(R12)  returns 0x00000001 (0000ms, 2885ms total)
T3C88 009:265 JLINK_ReadReg(R13 (SP))  returns 0x20001228 (0000ms, 2885ms total)
T3C88 009:265 JLINK_ReadReg(R14)  returns 0x08000DB3 (0000ms, 2885ms total)
T3C88 009:265 JLINK_ReadReg(R15 (PC))  returns 0x08001038 (0000ms, 2885ms total)
T3C88 009:265 JLINK_ReadReg(XPSR)  returns 0x21000046 (0000ms, 2885ms total)
T3C88 009:265 JLINK_ReadReg(MSP)  returns 0x20001228 (0000ms, 2885ms total)
T3C88 009:265 JLINK_ReadReg(PSP)  returns 0x00000000 (0000ms, 2885ms total)
T3C88 009:265 JLINK_ReadReg(CFBP)  returns 0x04000000 (0000ms, 2885ms total)
T3C88 009:265 JLINK_ReadReg(FPSCR)  returns 0x00000010 (0017ms, 2902ms total)
T3C88 009:282 JLINK_ReadReg(FPS0)  returns 0x4222947B (0000ms, 2902ms total)
T3C88 009:282 JLINK_ReadReg(FPS1)  returns 0x00000000 (0000ms, 2902ms total)
T3C88 009:282 JLINK_ReadReg(FPS2)  returns 0x00000000 (0000ms, 2902ms total)
T3C88 009:282 JLINK_ReadReg(FPS3)  returns 0x00000000 (0000ms, 2902ms total)
T3C88 009:282 JLINK_ReadReg(FPS4)  returns 0x00000000 (0000ms, 2902ms total)
T3C88 009:282 JLINK_ReadReg(FPS5)  returns 0x00000000 (0001ms, 2903ms total)
T3C88 009:283 JLINK_ReadReg(FPS6)  returns 0x00000000 (0000ms, 2903ms total)
T3C88 009:283 JLINK_ReadReg(FPS7)  returns 0x00000000 (0000ms, 2903ms total)
T3C88 009:283 JLINK_ReadReg(FPS8)  returns 0x00000000 (0000ms, 2903ms total)
T3C88 009:283 JLINK_ReadReg(FPS9)  returns 0x00000000 (0000ms, 2903ms total)
T3C88 009:283 JLINK_ReadReg(FPS10)  returns 0x00000000 (0000ms, 2903ms total)
T3C88 009:283 JLINK_ReadReg(FPS11)  returns 0x00000000 (0000ms, 2903ms total)
T3C88 009:283 JLINK_ReadReg(FPS12)  returns 0x00000000 (0000ms, 2903ms total)
T3C88 009:283 JLINK_ReadReg(FPS13)  returns 0x00000000 (0000ms, 2903ms total)
T3C88 009:283 JLINK_ReadReg(FPS14)  returns 0x00000000 (0000ms, 2903ms total)
T3C88 009:283 JLINK_ReadReg(FPS15)  returns 0x00000000 (0000ms, 2903ms total)
T3C88 009:283 JLINK_ReadReg(FPS16)  returns 0x4222947B (0000ms, 2903ms total)
T3C88 009:283 JLINK_ReadReg(FPS17)  returns 0x00000000 (0000ms, 2903ms total)
T3C88 009:283 JLINK_ReadReg(FPS18)  returns 0x00000000 (0000ms, 2903ms total)
T3C88 009:283 JLINK_ReadReg(FPS19)  returns 0x00000000 (0001ms, 2904ms total)
T3C88 009:284 JLINK_ReadReg(FPS20)  returns 0x00000000 (0000ms, 2904ms total)
T3C88 009:284 JLINK_ReadReg(FPS21)  returns 0x00000000 (0000ms, 2904ms total)
T3C88 009:284 JLINK_ReadReg(FPS22)  returns 0x00000000 (0000ms, 2904ms total)
T3C88 009:284 JLINK_ReadReg(FPS23)  returns 0x00000000 (0000ms, 2904ms total)
T3C88 009:284 JLINK_ReadReg(FPS24)  returns 0x00000000 (0000ms, 2904ms total)
T3C88 009:284 JLINK_ReadReg(FPS25)  returns 0x00000000 (0000ms, 2904ms total)
T3C88 009:284 JLINK_ReadReg(FPS26)  returns 0x00000000 (0000ms, 2904ms total)
T3C88 009:284 JLINK_ReadReg(FPS27)  returns 0x00000000 (0000ms, 2904ms total)
T3C88 009:284 JLINK_ReadReg(FPS28)  returns 0x00000000 (0000ms, 2904ms total)
T3C88 009:284 JLINK_ReadReg(FPS29)  returns 0x00000000 (0000ms, 2904ms total)
T3C88 009:284 JLINK_ReadReg(FPS30)  returns 0x00000000 (0000ms, 2904ms total)
T3C88 009:284 JLINK_ReadReg(FPS31)  returns 0x00000000 (0000ms, 2904ms total)
T3910 009:285 JLINK_ReadMem (0x2000123C, 0x0004 Bytes, ...) -- CPU_ReadMem(64 bytes @ 0x20001200) -- Updating C cache (64 bytes @ 0x20001200) -- Read from C cache (4 bytes @ 0x2000123C) - Data: 5B 11 00 08  returns 0x00 (0002ms, 2906ms total)
T3910 009:287 JLINK_ReadMem (0x20001230, 0x0004 Bytes, ...) -- Read from C cache (4 bytes @ 0x20001230) - Data: 00 00 00 00  returns 0x00 (0000ms, 2906ms total)
T3910 009:287 JLINK_ReadMem (0x20001234, 0x0004 Bytes, ...) -- Read from C cache (4 bytes @ 0x20001234) - Data: 00 00 00 00  returns 0x00 (0000ms, 2906ms total)
T3910 009:287 JLINK_ReadMem (0x20001238, 0x0004 Bytes, ...) -- Read from C cache (4 bytes @ 0x20001238) - Data: 00 00 00 00  returns 0x00 (0000ms, 2906ms total)
T3910 009:287 JLINK_ReadMem (0x2000124C, 0x0004 Bytes, ...) -- CPU_ReadMem(64 bytes @ 0x20001240) -- Updating C cache (64 bytes @ 0x20001240) -- Read from C cache (4 bytes @ 0x2000124C) - Data: 2F 05 00 08  returns 0x00 (0003ms, 2909ms total)
T3910 009:290 JLINK_ReadMem (0x20001240, 0x0004 Bytes, ...) -- Read from C cache (4 bytes @ 0x20001240) - Data: 00 00 00 00  returns 0x00 (0000ms, 2909ms total)
T3910 009:290 JLINK_ReadMem (0x20001244, 0x0004 Bytes, ...) -- Read from C cache (4 bytes @ 0x20001244) - Data: 68 02 00 20  returns 0x00 (0000ms, 2909ms total)
T3910 009:290 JLINK_ReadMem (0x20001248, 0x0004 Bytes, ...) -- Read from C cache (4 bytes @ 0x20001248) - Data: 00 00 00 00  returns 0x00 (0000ms, 2909ms total)
T3910 009:290 JLINK_ReadMem (0x20001254, 0x0004 Bytes, ...) -- Read from C cache (4 bytes @ 0x20001254) - Data: F7 04 00 08  returns 0x00 (0000ms, 2909ms total)
T3910 009:290 JLINK_ReadMem (0x20001250, 0x0004 Bytes, ...) -- Read from C cache (4 bytes @ 0x20001250) - Data: 00 00 00 00  returns 0x00 (0000ms, 2909ms total)
T3910 009:290 JLINK_ReadMem (0x2000125C, 0x0004 Bytes, ...) -- Read from C cache (4 bytes @ 0x2000125C) - Data: E9 FF FF FF  returns 0x00 (0000ms, 2909ms total)
T3910 009:290 JLINK_ReadMem (0x20001278, 0x0004 Bytes, ...) -- Read from C cache (4 bytes @ 0x20001278) - Data: 8A 11 00 08  returns 0x00 (0000ms, 2909ms total)
T3910 009:290 JLINK_ReadMem (0x2000127C, 0x0004 Bytes, ...) -- Read from C cache (4 bytes @ 0x2000127C) - Data: 00 00 00 21  returns 0x00 (0000ms, 2909ms total)
T3910 009:290 JLINK_ReadMem (0x20001274, 0x0004 Bytes, ...) -- Read from C cache (4 bytes @ 0x20001274) - Data: AD 03 00 08  returns 0x00 (0000ms, 2909ms total)
T3910 009:290 JLINK_ReadMem (0xE000ED28, 0x0004 Bytes, ...) -- CPU_ReadMem(4 bytes @ 0xE000ED28) - Data: 00 00 00 00  returns 0x00 (0001ms, 2910ms total)
T3910 009:291 JLINK_ReadMem (0x200012C4, 0x0004 Bytes, ...) -- CPU_ReadMem(64 bytes @ 0x200012C0) -- Updating C cache (64 bytes @ 0x200012C0) -- Read from C cache (4 bytes @ 0x200012C4) - Data: 89 11 00 08  returns 0x00 (0003ms, 2913ms total)
T3910 009:294 JLINK_ReadMem (0x200012C8, 0x0004 Bytes, ...) -- Read from C cache (4 bytes @ 0x200012C8) - Data: AA 55 AA 55  returns 0x00 (0000ms, 2913ms total)
T3910 009:294 JLINK_ReadMem (0x20000034, 0x0001 Bytes, ...) -- CPU_ReadMem(64 bytes @ 0x20000000) -- Updating C cache (64 bytes @ 0x20000000) -- Read from C cache (1 bytes @ 0x20000034) - Data: 00  returns 0x00 (0002ms, 2915ms total)
T3910 009:298 JLINK_ReadMem (0x20000035, 0x0001 Bytes, ...) -- Read from C cache (1 bytes @ 0x20000035) - Data: 04  returns 0x00 (0000ms, 2915ms total)
T3910 009:298 JLINK_ReadMem (0x20000036, 0x0001 Bytes, ...) -- Read from C cache (1 bytes @ 0x20000036) - Data: 02  returns 0x00 (0000ms, 2915ms total)
T3910 009:299 JLINK_ReadMem (0x20000000, 0x0001 Bytes, ...) -- Read from C cache (1 bytes @ 0x20000000) - Data: 01  returns 0x00 (0000ms, 2915ms total)
T3910 009:304 JLINK_ReadMem (0x0800102C, 0x003C Bytes, ...) -- Read from flash cache (60 bytes @ 0x0800102C) - Data: 9F ED 16 0A 28 EE 00 0A B0 EE 40 8A 9F ED 14 0A ...  returns 0x00 (0000ms, 2915ms total)
T3C88 009:777 JLINK_Step() -- Read from flash cache (2 bytes @ 0x08001038) -- CPU_ReadMem(4 bytes @ 0xE0001004) -- Read from flash cache (2 bytes @ 0x0800103A) -- Not simulated -- CPU_WriteMem(4 bytes @ 0xE0002008) -- CPU_WriteMem(4 bytes @ 0xE000200C) -- CPU_WriteMem(4 bytes @ 0xE0002010) -- CPU_WriteMem(4 bytes @ 0xE0002014) -- CPU_WriteMem(4 bytes @ 0xE0002018) -- CPU_WriteMem(4 bytes @ 0xE000201C)  returns 0x00 (0024ms, 2939ms total)
T3C88 009:801 JLINK_ReadReg(R15 (PC))  returns 0x0800103C (0000ms, 2939ms total)
T3C88 009:801 JLINK_ReadReg(XPSR)  returns 0x21000046 (0000ms, 2939ms total)
T3C88 009:801 JLINK_SetBPEx(Addr = 0x08001044, Type = 0xFFFFFFF2)  returns 0x00000014 (0000ms, 2939ms total)
T3C88 009:801 JLINK_SetBPEx(Addr = 0x08001038, Type = 0xFFFFFFF2)  returns 0x00000015 (0000ms, 2939ms total)
T3C88 009:801 JLINK_SetBPEx(Addr = 0x08000522, Type = 0xFFFFFFF2)  returns 0x00000016 (0000ms, 2939ms total)
T3C88 009:801 JLINK_SetBPEx(Addr = 0x0800054C, Type = 0xFFFFFFF2)  returns 0x00000017 (0000ms, 2939ms total)
T3C88 009:801 JLINK_SetBPEx(Addr = 0x08001118, Type = 0xFFFFFFF2)  returns 0x00000018 (0000ms, 2939ms total)
T3C88 009:801 JLINK_SetBPEx(Addr = 0x080010FE, Type = 0xFFFFFFF2)  returns 0x00000019 (0000ms, 2939ms total)
T3C88 009:801 JLINK_Go() -- CPU_WriteMem(4 bytes @ 0xE0002000) -- CPU_WriteMem(4 bytes @ 0xE0002000) -- CPU_WriteMem(4 bytes @ 0xE0002000) -- CPU_WriteMem(4 bytes @ 0xE0002000) -- CPU_WriteMem(4 bytes @ 0xE0002000) -- CPU_WriteMem(4 bytes @ 0xE0002000) -- CPU_ReadMem(4 bytes @ 0xE0001000) -- CPU_WriteMem(4 bytes @ 0xE0002008) -- CPU_WriteMem(4 bytes @ 0xE000200C) -- CPU_WriteMem(4 bytes @ 0xE0002010) -- CPU_WriteMem(4 bytes @ 0xE0002014) -- CPU_WriteMem(4 bytes @ 0xE0002018)
 -- CPU_WriteMem(4 bytes @ 0xE000201C) (0012ms, 2951ms total)
T3C88 009:915 JLINK_IsHalted()  returns TRUE (0011ms, 2962ms total)
T3C88 009:926 JLINK_Halt()  returns 0x00 (0000ms, 2951ms total)
T3C88 009:926 JLINK_IsHalted()  returns TRUE (0000ms, 2951ms total)
T3C88 009:926 JLINK_IsHalted()  returns TRUE (0000ms, 2951ms total)
T3C88 009:926 JLINK_IsHalted()  returns TRUE (0000ms, 2951ms total)
T3C88 009:926 JLINK_ReadReg(R15 (PC))  returns 0x08001044 (0000ms, 2951ms total)
T3C88 009:926 JLINK_ReadReg(XPSR)  returns 0x21000046 (0000ms, 2951ms total)
T3C88 009:926 JLINK_ClrBPEx(BPHandle = 0x00000014)  returns 0x00 (0000ms, 2951ms total)
T3C88 009:926 JLINK_ClrBPEx(BPHandle = 0x00000015)  returns 0x00 (0000ms, 2951ms total)
T3C88 009:926 JLINK_ClrBPEx(BPHandle = 0x00000016)  returns 0x00 (0000ms, 2951ms total)
T3C88 009:926 JLINK_ClrBPEx(BPHandle = 0x00000017)  returns 0x00 (0000ms, 2951ms total)
T3C88 009:926 JLINK_ClrBPEx(BPHandle = 0x00000018)  returns 0x00 (0000ms, 2951ms total)
T3C88 009:926 JLINK_ClrBPEx(BPHandle = 0x00000019)  returns 0x00 (0000ms, 2951ms total)
T3C88 009:926 JLINK_ReadMemU32(0xE000ED30, 0x0001 Items, ...) -- CPU_ReadMem(4 bytes @ 0xE000ED30) - Data: 02 00 00 00  returns 0x01 (0001ms, 2952ms total)
T3C88 009:927 JLINK_ReadMemU32(0xE0001028, 0x0001 Items, ...) -- CPU_ReadMem(4 bytes @ 0xE0001028) - Data: 00 00 00 00  returns 0x01 (0001ms, 2953ms total)
T3C88 009:928 JLINK_ReadMemU32(0xE0001038, 0x0001 Items, ...) -- CPU_ReadMem(4 bytes @ 0xE0001038) - Data: 00 02 00 00  returns 0x01 (0002ms, 2955ms total)
T3C88 009:930 JLINK_ReadMemU32(0xE0001048, 0x0001 Items, ...) -- CPU_ReadMem(4 bytes @ 0xE0001048) - Data: 00 00 00 00  returns 0x01 (0001ms, 2956ms total)
T3C88 009:931 JLINK_ReadMemU32(0xE0001058, 0x0001 Items, ...) -- CPU_ReadMem(4 bytes @ 0xE0001058) - Data: 00 00 00 00  returns 0x01 (0001ms, 2957ms total)
T3C88 009:932 JLINK_ReadReg(R0)  returns 0x00009056 (0000ms, 2957ms total)
T3C88 009:932 JLINK_ReadReg(R1)  returns 0x20000014 (0000ms, 2957ms total)
T3C88 009:932 JLINK_ReadReg(R2)  returns 0x200000C4 (0000ms, 2957ms total)
T3C88 009:932 JLINK_ReadReg(R3)  returns 0xE000E000 (0000ms, 2957ms total)
T3C88 009:932 JLINK_ReadReg(R4)  returns 0x00000000 (0000ms, 2957ms total)
T3C88 009:932 JLINK_ReadReg(R5)  returns 0x0000001B (0000ms, 2957ms total)
T3C88 009:932 JLINK_ReadReg(R6)  returns 0x00000001 (0000ms, 2957ms total)
T3C88 009:932 JLINK_ReadReg(R7)  returns 0x00000000 (0000ms, 2957ms total)
T3C88 009:932 JLINK_ReadReg(R8)  returns 0x00000000 (0000ms, 2957ms total)
T3C88 009:932 JLINK_ReadReg(R9)  returns 0x00000000 (0000ms, 2957ms total)
T3C88 009:932 JLINK_ReadReg(R10)  returns 0x080012EC (0000ms, 2957ms total)
T3C88 009:932 JLINK_ReadReg(R11)  returns 0x00000000 (0000ms, 2957ms total)
T3C88 009:932 JLINK_ReadReg(R12)  returns 0x00000001 (0001ms, 2958ms total)
T3C88 009:933 JLINK_ReadReg(R13 (SP))  returns 0x20001228 (0000ms, 2958ms total)
T3C88 009:933 JLINK_ReadReg(R14)  returns 0x08000DB3 (0000ms, 2958ms total)
T3C88 009:933 JLINK_ReadReg(R15 (PC))  returns 0x08001044 (0000ms, 2958ms total)
T3C88 009:933 JLINK_ReadReg(XPSR)  returns 0x21000046 (0000ms, 2958ms total)
T3C88 009:933 JLINK_ReadReg(MSP)  returns 0x20001228 (0000ms, 2958ms total)
T3C88 009:933 JLINK_ReadReg(PSP)  returns 0x00000000 (0000ms, 2958ms total)
T3C88 009:933 JLINK_ReadReg(CFBP)  returns 0x04000000 (0000ms, 2958ms total)
T3C88 009:933 JLINK_ReadReg(FPSCR)  returns 0x00000010 (0018ms, 2976ms total)
T3C88 009:951 JLINK_ReadReg(FPS0)  returns 0x439AB8F5 (0000ms, 2976ms total)
T3C88 009:951 JLINK_ReadReg(FPS1)  returns 0x00000000 (0000ms, 2976ms total)
T3C88 009:951 JLINK_ReadReg(FPS2)  returns 0x00000000 (0000ms, 2976ms total)
T3C88 009:951 JLINK_ReadReg(FPS3)  returns 0x00000000 (0000ms, 2976ms total)
T3C88 009:951 JLINK_ReadReg(FPS4)  returns 0x00000000 (0000ms, 2976ms total)
T3C88 009:951 JLINK_ReadReg(FPS5)  returns 0x00000000 (0000ms, 2976ms total)
T3C88 009:951 JLINK_ReadReg(FPS6)  returns 0x00000000 (0000ms, 2976ms total)
T3C88 009:951 JLINK_ReadReg(FPS7)  returns 0x00000000 (0000ms, 2976ms total)
T3C88 009:951 JLINK_ReadReg(FPS8)  returns 0x00000000 (0000ms, 2976ms total)
T3C88 009:951 JLINK_ReadReg(FPS9)  returns 0x00000000 (0000ms, 2976ms total)
T3C88 009:951 JLINK_ReadReg(FPS10)  returns 0x00000000 (0000ms, 2976ms total)
T3C88 009:951 JLINK_ReadReg(FPS11)  returns 0x00000000 (0000ms, 2976ms total)
T3C88 009:951 JLINK_ReadReg(FPS12)  returns 0x00000000 (0000ms, 2976ms total)
T3C88 009:952 JLINK_ReadReg(FPS13)  returns 0x00000000 (0000ms, 2977ms total)
T3C88 009:952 JLINK_ReadReg(FPS14)  returns 0x00000000 (0000ms, 2977ms total)
T3C88 009:952 JLINK_ReadReg(FPS15)  returns 0x00000000 (0000ms, 2977ms total)
T3C88 009:952 JLINK_ReadReg(FPS16)  returns 0x439AB8F5 (0000ms, 2977ms total)
T3C88 009:952 JLINK_ReadReg(FPS17)  returns 0x00000000 (0000ms, 2977ms total)
T3C88 009:952 JLINK_ReadReg(FPS18)  returns 0x00000000 (0000ms, 2977ms total)
T3C88 009:952 JLINK_ReadReg(FPS19)  returns 0x00000000 (0000ms, 2977ms total)
T3C88 009:952 JLINK_ReadReg(FPS20)  returns 0x00000000 (0000ms, 2977ms total)
T3C88 009:952 JLINK_ReadReg(FPS21)  returns 0x00000000 (0000ms, 2977ms total)
T3C88 009:952 JLINK_ReadReg(FPS22)  returns 0x00000000 (0000ms, 2977ms total)
